HEADER
"PSFversion" "1.00"
"simulator" "spectre"
"version" "20.1.0.155.isr4"
"date" "10:36:18 PM, Wed Apr 26, 2023"
"design" "// Generated for: spectre"
"analysis type" "ac"
"analysis name" "ac"
"analysis description" "AC Analysis `ac': freq = (1 MHz -> 10 GHz)"
"xVecSorted" "ascending"
"tolerance.relative" 0.00100000
"start" 1.00000e+06
"stop" 1.00000e+10
"operating point producer" "dcOp"
TYPE
"sweep" FLOAT DOUBLE PROP(
"key" "sweep"
)
"Real" COMPLEX DOUBLE PROP(
"units" ""
"key" "node"
"tolerance" 1.00000e-06
)
"Tau" COMPLEX DOUBLE PROP(
"units" "N*m"
"key" "node"
"tolerance" 1.00000e-06
)
"Alpha" COMPLEX DOUBLE PROP(
"units" "rads/s^2"
"key" "node"
"tolerance" 1.00000e-06
)
"Omega" COMPLEX DOUBLE PROP(
"units" "rads/s"
"key" "node"
"tolerance" 1.00000e-06
)
"Theta" COMPLEX DOUBLE PROP(
"units" "rads"
"key" "node"
"tolerance" 1.00000e-06
)
"F" COMPLEX DOUBLE PROP(
"units" "N"
"key" "node"
"tolerance" 1.00000e-06
)
"Imp" COMPLEX DOUBLE PROP(
"units" "m/s^3"
"key" "node"
"tolerance" 1.00000e-06
)
"Acc" COMPLEX DOUBLE PROP(
"units" "m/s^2"
"key" "node"
"tolerance" 1.00000e-06
)
"Vel" COMPLEX DOUBLE PROP(
"units" "m/s"
"key" "node"
"tolerance" 1.00000e-06
)
"Pos" COMPLEX DOUBLE PROP(
"units" "m"
"key" "node"
"tolerance" 1.00000e-06
)
"Phi" COMPLEX DOUBLE PROP(
"units" "Wb"
"key" "node"
"tolerance" 1.00000e-09
)
"V" COMPLEX DOUBLE PROP(
"units" "V"
"key" "node"
"tolerance" 1.00000e-06
)
"I" COMPLEX DOUBLE PROP(
"units" "A"
"key" "branch"
"tolerance" 1.00000e-12
)
"MMF" COMPLEX DOUBLE PROP(
"units" "A*turn"
"key" "node"
"tolerance" 1.00000e-12
)
"Wb" COMPLEX DOUBLE PROP(
"units" "Wb"
"key" "node"
"tolerance" 1.00000e-09
)
"Temp" COMPLEX DOUBLE PROP(
"units" "C"
"key" "node"
"tolerance" 0.000100000
)
"Pwr" COMPLEX DOUBLE PROP(
"units" "W"
"key" "node"
"tolerance" 1.00000e-09
)
"U" COMPLEX DOUBLE PROP(
"units" ""
"key" "node"
"tolerance" 1.00000e-06
)
"V/Sec" COMPLEX DOUBLE PROP(
"units" "V/s"
"key" "node"
"tolerance" 0.000100000
)
"I/Sec" COMPLEX DOUBLE PROP(
"units" "A/s"
"key" "node"
"tolerance" 1.00000e-06
)
"1/Sec" COMPLEX DOUBLE PROP(
"units" "1/s"
"key" "node"
"tolerance" 0.000100000
)
"HOD" COMPLEX DOUBLE PROP(
"units" ""
"key" "node"
"tolerance" 0.0100000
)
"Q" COMPLEX DOUBLE PROP(
"units" "coul"
"key" "node"
"tolerance" 1.00000e-14
)
SWEEP
"freq" "sweep" PROP(
"sweep_direction" 0
"units" "Hz"
"plot" 0
"grid" 3
)
TRACE
"I2:sink" "I"
"net013" "V"
VALUE
"freq" 1.000000000000000e+06
"I2:sink" (0.000100000 0.00000)
"net013" (-0.0227272 2.04282e-05)
"freq" 1.202264434617413e+06
"I2:sink" (0.000100000 0.00000)
"net013" (-0.0227272 2.45601e-05)
"freq" 1.445439770745928e+06
"I2:sink" (0.000100000 0.00000)
"net013" (-0.0227272 2.95278e-05)
"freq" 1.737800828749376e+06
"I2:sink" (0.000100000 0.00000)
"net013" (-0.0227272 3.55002e-05)
"freq" 2.089296130854040e+06
"I2:sink" (0.000100000 0.00000)
"net013" (-0.0227272 4.26806e-05)
"freq" 2.511886431509580e+06
"I2:sink" (0.000100000 0.00000)
"net013" (-0.0227271 5.13133e-05)
"freq" 3.019951720402017e+06
"I2:sink" (0.000100000 0.00000)
"net013" (-0.0227271 6.16921e-05)
"freq" 3.630780547701014e+06
"I2:sink" (0.000100000 0.00000)
"net013" (-0.0227271 7.41702e-05)
"freq" 4.365158322401660e+06
"I2:sink" (0.000100000 0.00000)
"net013" (-0.0227270 8.91720e-05)
"freq" 5.248074602497727e+06
"I2:sink" (0.000100000 0.00000)
"net013" (-0.0227269 0.000107208)
"freq" 6.309573444801933e+06
"I2:sink" (0.000100000 0.00000)
"net013" (-0.0227267 0.000128892)
"freq" 7.585775750291838e+06
"I2:sink" (0.000100000 0.00000)
"net013" (-0.0227265 0.000154961)
"freq" 9.120108393559098e+06
"I2:sink" (0.000100000 0.00000)
"net013" (-0.0227262 0.000186303)
"freq" 1.096478196143185e+07
"I2:sink" (0.000100000 0.00000)
"net013" (-0.0227258 0.000223983)
"freq" 1.318256738556407e+07
"I2:sink" (0.000100000 0.00000)
"net013" (-0.0227251 0.000269283)
"freq" 1.584893192461114e+07
"I2:sink" (0.000100000 0.00000)
"net013" (-0.0227242 0.000323742)
"freq" 1.905460717963248e+07
"I2:sink" (0.000100000 0.00000)
"net013" (-0.0227229 0.000389211)
"freq" 2.290867652767774e+07
"I2:sink" (0.000100000 0.00000)
"net013" (-0.0227209 0.000467912)
"freq" 2.754228703338167e+07
"I2:sink" (0.000100000 0.00000)
"net013" (-0.0227181 0.000562515)
"freq" 3.311311214825912e+07
"I2:sink" (0.000100000 0.00000)
"net013" (-0.0227141 0.000676225)
"freq" 3.981071705534974e+07
"I2:sink" (0.000100000 0.00000)
"net013" (-0.0227082 0.000812884)
"freq" 4.786300923226386e+07
"I2:sink" (0.000100000 0.00000)
"net013" (-0.0226998 0.000977099)
"freq" 5.754399373371573e+07
"I2:sink" (0.000100000 0.00000)
"net013" (-0.0226875 0.00117438)
"freq" 6.918309709189369e+07
"I2:sink" (0.000100000 0.00000)
"net013" (-0.0226699 0.00141130)
"freq" 8.317637711026715e+07
"I2:sink" (0.000100000 0.00000)
"net013" (-0.0226444 0.00169570)
"freq" 1.000000000000001e+08
"I2:sink" (0.000100000 0.00000)
"net013" (-0.0226075 0.00203683)
"freq" 1.202264434617414e+08
"I2:sink" (0.000100000 0.00000)
"net013" (-0.0225544 0.00244561)
"freq" 1.445439770745929e+08
"I2:sink" (0.000100000 0.00000)
"net013" (-0.0224778 0.00293472)
"freq" 1.737800828749377e+08
"I2:sink" (0.000100000 0.00000)
"net013" (-0.0223675 0.00351869)
"freq" 2.089296130854041e+08
"I2:sink" (0.000100000 0.00000)
"net013" (-0.0222089 0.00421378)
"freq" 2.511886431509582e+08
"I2:sink" (0.000100000 0.00000)
"net013" (-0.0219814 0.00503738)
"freq" 3.019951720402019e+08
"I2:sink" (0.000100000 0.00000)
"net013" (-0.0216561 0.00600689)
"freq" 3.630780547701017e+08
"I2:sink" (0.000100000 0.00000)
"net013" (-0.0211934 0.00713727)
"freq" 4.365158322401664e+08
"I2:sink" (0.000100000 0.00000)
"net013" (-0.0205395 0.00843683)
"freq" 5.248074602497731e+08
"I2:sink" (0.000100000 0.00000)
"net013" (-0.0196248 0.00990017)
"freq" 6.309573444801939e+08
"I2:sink" (0.000100000 0.00000)
"net013" (-0.0183629 0.0114973)
"freq" 7.585775750291846e+08
"I2:sink" (0.000100000 0.00000)
"net013" (-0.0166561 0.0131587)
"freq" 9.120108393559108e+08
"I2:sink" (0.000100000 0.00000)
"net013" (-0.0144105 0.0147578)
"freq" 1.096478196143186e+09
"I2:sink" (0.000100000 0.00000)
"net013" (-0.0115661 0.0160977)
"freq" 1.318256738556409e+09
"I2:sink" (0.000100000 0.00000)
"net013" (-0.00814507 0.0169134)
"freq" 1.584893192461115e+09
"I2:sink" (0.000100000 0.00000)
"net013" (-0.00430749 0.0169107)
"freq" 1.905460717963249e+09
"I2:sink" (0.000100000 0.00000)
"net013" (-0.000386749 0.0158505)
"freq" 2.290867652767776e+09
"I2:sink" (0.000100000 0.00000)
"net013" (0.00313814 0.0136671)
"freq" 2.754228703338170e+09
"I2:sink" (0.000100000 0.00000)
"net013" (0.00576019 0.0105626)
"freq" 3.311311214825915e+09
"I2:sink" (0.000100000 0.00000)
"net013" (0.00712313 0.00700511)
"freq" 3.981071705534978e+09
"I2:sink" (0.000100000 0.00000)
"net013" (0.00717083 0.00359591)
"freq" 4.786300923226390e+09
"I2:sink" (0.000100000 0.00000)
"net013" (0.00617293 0.000860826)
"freq" 5.754399373371577e+09
"I2:sink" (0.000100000 0.00000)
"net013" (0.00460502 -0.000922330)
"freq" 6.918309709189375e+09
"I2:sink" (0.000100000 0.00000)
"net013" (0.00295599 -0.00177001)
"freq" 8.317637711026722e+09
"I2:sink" (0.000100000 0.00000)
"net013" (0.00157117 -0.00191020)
"freq" 1.000000000000000e+10
"I2:sink" (0.000100000 0.00000)
"net013" (0.000597290 -0.00164244)
END
