HEADER
"PSFversion" "1.00"
"simulator" "spectre"
"version" "20.1.0.155.isr4"
"date" "3:30:12 PM, Wed Apr 5, 2023"
"design" "// Generated for: spectre"
"analysis type" "ac"
"analysis name" "ac"
"analysis description" "AC Analysis `ac': freq = (1 MHz -> 10 GHz)"
"xVecSorted" "ascending"
"tolerance.relative" 0.00100000
"start" 1.00000e+06
"stop" 1.00000e+10
"operating point producer" "ac"
TYPE
"sweep" FLOAT DOUBLE PROP(
"key" "sweep"
)
"Real" COMPLEX DOUBLE PROP(
"units" ""
"key" "node"
"tolerance" 1.00000e-06
)
"Tau" COMPLEX DOUBLE PROP(
"units" "N*m"
"key" "node"
"tolerance" 1.00000e-06
)
"Alpha" COMPLEX DOUBLE PROP(
"units" "rads/s^2"
"key" "node"
"tolerance" 1.00000e-06
)
"Omega" COMPLEX DOUBLE PROP(
"units" "rads/s"
"key" "node"
"tolerance" 1.00000e-06
)
"Theta" COMPLEX DOUBLE PROP(
"units" "rads"
"key" "node"
"tolerance" 1.00000e-06
)
"F" COMPLEX DOUBLE PROP(
"units" "N"
"key" "node"
"tolerance" 1.00000e-06
)
"Imp" COMPLEX DOUBLE PROP(
"units" "m/s^3"
"key" "node"
"tolerance" 1.00000e-06
)
"Acc" COMPLEX DOUBLE PROP(
"units" "m/s^2"
"key" "node"
"tolerance" 1.00000e-06
)
"Vel" COMPLEX DOUBLE PROP(
"units" "m/s"
"key" "node"
"tolerance" 1.00000e-06
)
"Pos" COMPLEX DOUBLE PROP(
"units" "m"
"key" "node"
"tolerance" 1.00000e-06
)
"Phi" COMPLEX DOUBLE PROP(
"units" "Wb"
"key" "node"
"tolerance" 1.00000e-09
)
"V" COMPLEX DOUBLE PROP(
"units" "V"
"key" "node"
"tolerance" 1.00000e-06
)
"I" COMPLEX DOUBLE PROP(
"units" "A"
"key" "branch"
"tolerance" 1.00000e-12
)
"MMF" COMPLEX DOUBLE PROP(
"units" "A*turn"
"key" "node"
"tolerance" 1.00000e-12
)
"Wb" COMPLEX DOUBLE PROP(
"units" "Wb"
"key" "node"
"tolerance" 1.00000e-09
)
"Temp" COMPLEX DOUBLE PROP(
"units" "C"
"key" "node"
"tolerance" 0.000100000
)
"Pwr" COMPLEX DOUBLE PROP(
"units" "W"
"key" "node"
"tolerance" 1.00000e-09
)
"U" COMPLEX DOUBLE PROP(
"units" ""
"key" "node"
"tolerance" 1.00000e-06
)
"V/Sec" COMPLEX DOUBLE PROP(
"units" "V/s"
"key" "node"
"tolerance" 0.000100000
)
"I/Sec" COMPLEX DOUBLE PROP(
"units" "A/s"
"key" "node"
"tolerance" 1.00000e-06
)
"1/Sec" COMPLEX DOUBLE PROP(
"units" "1/s"
"key" "node"
"tolerance" 0.000100000
)
"HOD" COMPLEX DOUBLE PROP(
"units" ""
"key" "node"
"tolerance" 0.0100000
)
"Q" COMPLEX DOUBLE PROP(
"units" "coul"
"key" "node"
"tolerance" 1.00000e-14
)
SWEEP
"freq" "sweep" PROP(
"sweep_direction" 0
"units" "Hz"
"plot" 0
"grid" 3
)
TRACE
"I2:sink" "I"
"net013" "V"
VALUE
"freq" 1.000000000000000e+06
"I2:sink" (0.000100000 0.00000)
"net013" (-0.712829 0.000990318)
"freq" 1.202264434617413e+06
"I2:sink" (0.000100000 0.00000)
"net013" (-0.712829 0.00119062)
"freq" 1.445439770745928e+06
"I2:sink" (0.000100000 0.00000)
"net013" (-0.712828 0.00143144)
"freq" 1.737800828749376e+06
"I2:sink" (0.000100000 0.00000)
"net013" (-0.712827 0.00172097)
"freq" 2.089296130854040e+06
"I2:sink" (0.000100000 0.00000)
"net013" (-0.712826 0.00206906)
"freq" 2.511886431509580e+06
"I2:sink" (0.000100000 0.00000)
"net013" (-0.712824 0.00248755)
"freq" 3.019951720402017e+06
"I2:sink" (0.000100000 0.00000)
"net013" (-0.712821 0.00299069)
"freq" 3.630780547701014e+06
"I2:sink" (0.000100000 0.00000)
"net013" (-0.712817 0.00359559)
"freq" 4.365158322401660e+06
"I2:sink" (0.000100000 0.00000)
"net013" (-0.712811 0.00432282)
"freq" 5.248074602497727e+06
"I2:sink" (0.000100000 0.00000)
"net013" (-0.712803 0.00519713)
"freq" 6.309573444801933e+06
"I2:sink" (0.000100000 0.00000)
"net013" (-0.712790 0.00624825)
"freq" 7.585775750291838e+06
"I2:sink" (0.000100000 0.00000)
"net013" (-0.712772 0.00751192)
"freq" 9.120108393559098e+06
"I2:sink" (0.000100000 0.00000)
"net013" (-0.712746 0.00903109)
"freq" 1.096478196143185e+07
"I2:sink" (0.000100000 0.00000)
"net013" (-0.712709 0.0108574)
"freq" 1.318256738556407e+07
"I2:sink" (0.000100000 0.00000)
"net013" (-0.712654 0.0130528)
"freq" 1.584893192461114e+07
"I2:sink" (0.000100000 0.00000)
"net013" (-0.712576 0.0156917)
"freq" 1.905460717963248e+07
"I2:sink" (0.000100000 0.00000)
"net013" (-0.712463 0.0188635)
"freq" 2.290867652767774e+07
"I2:sink" (0.000100000 0.00000)
"net013" (-0.712299 0.0226754)
"freq" 2.754228703338167e+07
"I2:sink" (0.000100000 0.00000)
"net013" (-0.712063 0.0272557)
"freq" 3.311311214825912e+07
"I2:sink" (0.000100000 0.00000)
"net013" (-0.711721 0.0327579)
"freq" 3.981071705534974e+07
"I2:sink" (0.000100000 0.00000)
"net013" (-0.711228 0.0393651)
"freq" 4.786300923226386e+07
"I2:sink" (0.000100000 0.00000)
"net013" (-0.710515 0.0472951)
"freq" 5.754399373371573e+07
"I2:sink" (0.000100000 0.00000)
"net013" (-0.709487 0.0568054)
"freq" 6.918309709189369e+07
"I2:sink" (0.000100000 0.00000)
"net013" (-0.708004 0.0681983)
"freq" 8.317637711026715e+07
"I2:sink" (0.000100000 0.00000)
"net013" (-0.705867 0.0818246)
"freq" 1.000000000000001e+08
"I2:sink" (0.000100000 0.00000)
"net013" (-0.702793 0.0980846)
"freq" 1.202264434617414e+08
"I2:sink" (0.000100000 0.00000)
"net013" (-0.698377 0.117422)
"freq" 1.445439770745929e+08
"I2:sink" (0.000100000 0.00000)
"net013" (-0.692054 0.140310)
"freq" 1.737800828749377e+08
"I2:sink" (0.000100000 0.00000)
"net013" (-0.683038 0.167209)
"freq" 2.089296130854041e+08
"I2:sink" (0.000100000 0.00000)
"net013" (-0.670255 0.198506)
"freq" 2.511886431509582e+08
"I2:sink" (0.000100000 0.00000)
"net013" (-0.652283 0.234387)
"freq" 3.019951720402019e+08
"I2:sink" (0.000100000 0.00000)
"net013" (-0.627308 0.274655)
"freq" 3.630780547701017e+08
"I2:sink" (0.000100000 0.00000)
"net013" (-0.593163 0.318453)
"freq" 4.365158322401664e+08
"I2:sink" (0.000100000 0.00000)
"net013" (-0.547514 0.363928)
"freq" 5.248074602497731e+08
"I2:sink" (0.000100000 0.00000)
"net013" (-0.488291 0.407897)
"freq" 6.309573444801939e+08
"I2:sink" (0.000100000 0.00000)
"net013" (-0.414425 0.445716)
"freq" 7.585775750291846e+08
"I2:sink" (0.000100000 0.00000)
"net013" (-0.326797 0.471601)
"freq" 9.120108393559108e+08
"I2:sink" (0.000100000 0.00000)
"net013" (-0.229053 0.479628)
"freq" 1.096478196143186e+09
"I2:sink" (0.000100000 0.00000)
"net013" (-0.127757 0.465301)
"freq" 1.318256738556409e+09
"I2:sink" (0.000100000 0.00000)
"net013" (-0.0315011 0.427112)
"freq" 1.584893192461115e+09
"I2:sink" (0.000100000 0.00000)
"net013" (0.0507977 0.367360)
"freq" 1.905460717963249e+09
"I2:sink" (0.000100000 0.00000)
"net013" (0.111706 0.291903)
"freq" 2.290867652767776e+09
"I2:sink" (0.000100000 0.00000)
"net013" (0.146597 0.209234)
"freq" 2.754228703338170e+09
"I2:sink" (0.000100000 0.00000)
"net013" (0.154580 0.129343)
"freq" 3.311311214825915e+09
"I2:sink" (0.000100000 0.00000)
"net013" (0.139351 0.0621113)
"freq" 3.981071705534978e+09
"I2:sink" (0.000100000 0.00000)
"net013" (0.109258 0.0146626)
"freq" 4.786300923226390e+09
"I2:sink" (0.000100000 0.00000)
"net013" (0.0750310 -0.0114917)
"freq" 5.754399373371577e+09
"I2:sink" (0.000100000 0.00000)
"net013" (0.0454697 -0.0207331)
"freq" 6.918309709189375e+09
"I2:sink" (0.000100000 0.00000)
"net013" (0.0244835 -0.0201235)
"freq" 8.317637711026722e+09
"I2:sink" (0.000100000 0.00000)
"net013" (0.0116702 -0.0156674)
"freq" 1.000000000000000e+10
"I2:sink" (0.000100000 0.00000)
"net013" (0.00474101 -0.0108111)
END
