HEADER
"PSFversion" "1.00"
"simulator" "spectre"
"version" "20.1.0.155.isr4"
"date" "6:51:25 AM, Wed Apr 5, 2023"
"design" "// Generated for: spectre"
"analysis type" "ac"
"analysis name" "ac"
"analysis description" "AC Analysis `ac': freq = (10 Hz -> 10 MHz)"
"xVecSorted" "ascending"
"tolerance.relative" 0.00100000
"start" 10.0000
"stop" 1.00000e+07
"operating point producer" "ac"
TYPE
"sweep" FLOAT DOUBLE PROP(
"key" "sweep"
)
"Real" COMPLEX DOUBLE PROP(
"units" ""
"key" "node"
"tolerance" 1.00000e-06
)
"Tau" COMPLEX DOUBLE PROP(
"units" "N*m"
"key" "node"
"tolerance" 1.00000e-06
)
"Alpha" COMPLEX DOUBLE PROP(
"units" "rads/s^2"
"key" "node"
"tolerance" 1.00000e-06
)
"Omega" COMPLEX DOUBLE PROP(
"units" "rads/s"
"key" "node"
"tolerance" 1.00000e-06
)
"Theta" COMPLEX DOUBLE PROP(
"units" "rads"
"key" "node"
"tolerance" 1.00000e-06
)
"F" COMPLEX DOUBLE PROP(
"units" "N"
"key" "node"
"tolerance" 1.00000e-06
)
"Imp" COMPLEX DOUBLE PROP(
"units" "m/s^3"
"key" "node"
"tolerance" 1.00000e-06
)
"Acc" COMPLEX DOUBLE PROP(
"units" "m/s^2"
"key" "node"
"tolerance" 1.00000e-06
)
"Vel" COMPLEX DOUBLE PROP(
"units" "m/s"
"key" "node"
"tolerance" 1.00000e-06
)
"Pos" COMPLEX DOUBLE PROP(
"units" "m"
"key" "node"
"tolerance" 1.00000e-06
)
"Phi" COMPLEX DOUBLE PROP(
"units" "Wb"
"key" "node"
"tolerance" 1.00000e-09
)
"V" COMPLEX DOUBLE PROP(
"units" "V"
"key" "node"
"tolerance" 1.00000e-06
)
"I" COMPLEX DOUBLE PROP(
"units" "A"
"key" "branch"
"tolerance" 1.00000e-12
)
"MMF" COMPLEX DOUBLE PROP(
"units" "A*turn"
"key" "node"
"tolerance" 1.00000e-12
)
"Wb" COMPLEX DOUBLE PROP(
"units" "Wb"
"key" "node"
"tolerance" 1.00000e-09
)
"Temp" COMPLEX DOUBLE PROP(
"units" "C"
"key" "node"
"tolerance" 0.000100000
)
"Pwr" COMPLEX DOUBLE PROP(
"units" "W"
"key" "node"
"tolerance" 1.00000e-09
)
"U" COMPLEX DOUBLE PROP(
"units" ""
"key" "node"
"tolerance" 1.00000e-06
)
"V/Sec" COMPLEX DOUBLE PROP(
"units" "V/s"
"key" "node"
"tolerance" 0.000100000
)
"I/Sec" COMPLEX DOUBLE PROP(
"units" "A/s"
"key" "node"
"tolerance" 1.00000e-06
)
"1/Sec" COMPLEX DOUBLE PROP(
"units" "1/s"
"key" "node"
"tolerance" 0.000100000
)
"HOD" COMPLEX DOUBLE PROP(
"units" ""
"key" "node"
"tolerance" 0.0100000
)
"Q" COMPLEX DOUBLE PROP(
"units" "coul"
"key" "node"
"tolerance" 1.00000e-14
)
SWEEP
"freq" "sweep" PROP(
"sweep_direction" 0
"units" "Hz"
"plot" 0
"grid" 3
)
TRACE
"net11" "V"
"net21" "V"
VALUE
"freq" 1.000000000000000e+01
"net11" (-0.0100000 0.00000)
"net21" (-0.868551 1.02522e-05)
"freq" 1.318256738556407e+01
"net11" (-0.0100000 0.00000)
"net21" (-0.868551 1.35151e-05)
"freq" 1.737800828749376e+01
"net11" (-0.0100000 0.00000)
"net21" (-0.868551 1.78163e-05)
"freq" 2.290867652767773e+01
"net11" (-0.0100000 0.00000)
"net21" (-0.868551 2.34865e-05)
"freq" 3.019951720402017e+01
"net11" (-0.0100000 0.00000)
"net21" (-0.868551 3.09613e-05)
"freq" 3.981071705534974e+01
"net11" (-0.0100000 0.00000)
"net21" (-0.868551 4.08149e-05)
"freq" 5.248074602497729e+01
"net11" (-0.0100000 0.00000)
"net21" (-0.868551 5.38045e-05)
"freq" 6.918309709189369e+01
"net11" (-0.0100000 0.00000)
"net21" (-0.868551 7.09282e-05)
"freq" 9.120108393559103e+01
"net11" (-0.0100000 0.00000)
"net21" (-0.868551 9.35015e-05)
"freq" 1.202264434617414e+02
"net11" (-0.0100000 0.00000)
"net21" (-0.868551 0.000123259)
"freq" 1.584893192461115e+02
"net11" (-0.0100000 0.00000)
"net21" (-0.868551 0.000162487)
"freq" 2.089296130854041e+02
"net11" (-0.0100000 0.00000)
"net21" (-0.868551 0.000214200)
"freq" 2.754228703338169e+02
"net11" (-0.0100000 0.00000)
"net21" (-0.868551 0.000282370)
"freq" 3.630780547701017e+02
"net11" (-0.0100000 0.00000)
"net21" (-0.868551 0.000372236)
"freq" 4.786300923226389e+02
"net11" (-0.0100000 0.00000)
"net21" (-0.868551 0.000490703)
"freq" 6.309573444801940e+02
"net11" (-0.0100000 0.00000)
"net21" (-0.868551 0.000646872)
"freq" 8.317637711026721e+02
"net11" (-0.0100000 0.00000)
"net21" (-0.868550 0.000852743)
"freq" 1.096478196143187e+03
"net11" (-0.0100000 0.00000)
"net21" (-0.868550 0.00112413)
"freq" 1.445439770745930e+03
"net11" (-0.0100000 0.00000)
"net21" (-0.868549 0.00148189)
"freq" 1.905460717963250e+03
"net11" (-0.0100000 0.00000)
"net21" (-0.868547 0.00195351)
"freq" 2.511886431509584e+03
"net11" (-0.0100000 0.00000)
"net21" (-0.868544 0.00257522)
"freq" 3.311311214825917e+03
"net11" (-0.0100000 0.00000)
"net21" (-0.868538 0.00339478)
"freq" 4.365158322401668e+03
"net11" (-0.0100000 0.00000)
"net21" (-0.868528 0.00447515)
"freq" 5.754399373371581e+03
"net11" (-0.0100000 0.00000)
"net21" (-0.868511 0.00589928)
"freq" 7.585775750291853e+03
"net11" (-0.0100000 0.00000)
"net21" (-0.868482 0.00777649)
"freq" 1.000000000000002e+04
"net11" (-0.0100000 0.00000)
"net21" (-0.868430 0.0102508)
"freq" 1.318256738556410e+04
"net11" (-0.0100000 0.00000)
"net21" (-0.868341 0.0135118)
"freq" 1.737800828749380e+04
"net11" (-0.0100000 0.00000)
"net21" (-0.868186 0.0178089)
"freq" 2.290867652767779e+04
"net11" (-0.0100000 0.00000)
"net21" (-0.867917 0.0234694)
"freq" 3.019951720402025e+04
"net11" (-0.0100000 0.00000)
"net21" (-0.867450 0.0309220)
"freq" 3.981071705534984e+04
"net11" (-0.0100000 0.00000)
"net21" (-0.866639 0.0407251)
"freq" 5.248074602497741e+04
"net11" (-0.0100000 0.00000)
"net21" (-0.865233 0.0535991)
"freq" 6.918309709189385e+04
"net11" (-0.0100000 0.00000)
"net21" (-0.862801 0.0704589)
"freq" 9.120108393559126e+04
"net11" (-0.0100000 0.00000)
"net21" (-0.858607 0.0924317)
"freq" 1.202264434617417e+05
"net11" (-0.0100000 0.00000)
"net21" (-0.851415 0.120829)
"freq" 1.584893192461119e+05
"net11" (-0.0100000 0.00000)
"net21" (-0.839198 0.156999)
"freq" 2.089296130854046e+05
"net11" (-0.0100000 0.00000)
"net21" (-0.818782 0.201933)
"freq" 2.754228703338176e+05
"net11" (-0.0100000 0.00000)
"net21" (-0.785568 0.255409)
"freq" 3.630780547701027e+05
"net11" (-0.0100000 0.00000)
"net21" (-0.733834 0.314537)
"freq" 4.786300923226401e+05
"net11" (-0.0100000 0.00000)
"net21" (-0.658466 0.372086)
"freq" 6.309573444801957e+05
"net11" (-0.0100000 0.00000)
"net21" (-0.558722 0.416265)
"freq" 8.317637711026743e+05
"net11" (-0.0100000 0.00000)
"net21" (-0.442256 0.434469)
"freq" 1.096478196143189e+06
"net11" (-0.0100000 0.00000)
"net21" (-0.324591 0.420548)
"freq" 1.445439770745934e+06
"net11" (-0.0100000 0.00000)
"net21" (-0.221879 0.379256)
"freq" 1.905460717963255e+06
"net11" (-0.0100000 0.00000)
"net21" (-0.143049 0.322765)
"freq" 2.511886431509591e+06
"net11" (-0.0100000 0.00000)
"net21" (-0.0883187 0.263313)
"freq" 3.311311214825926e+06
"net11" (-0.0100000 0.00000)
"net21" (-0.0529115 0.208807)
"freq" 4.365158322401680e+06
"net11" (-0.0100000 0.00000)
"net21" (-0.0310410 0.162643)
"freq" 5.754399373371596e+06
"net11" (-0.0100000 0.00000)
"net21" (-0.0179159 0.125310)
"freq" 7.585775750291875e+06
"net11" (-0.0100000 0.00000)
"net21" (-0.0101751 0.0959214)
"freq" 1.000000000000000e+07
"net11" (-0.0100000 0.00000)
"net21" (-0.00565646 0.0731456)
END
